Vin,DutyCycle,Vout,Iout,Temp,Condition
12.529804177915283,0.5830629607273935,7.262261311224876,1.0879417041137402,30.89456965352752,0
15.277981553494861,0.8695165248330141,14.14599478568087,2.485155604857011,79.76506589063165,1
17.521012239168286,0.7021692050177503,12.775371120701001,2.6260974271171436,67.83172949777857,1
14.74269138985086,0.6818018003931782,9.596748638037155,3.0036521787366315,77.81358119806515,1
11.996397460909431,0.5476562522688043,6.238924586923,1.0242882013150274,42.824211793000615,0
11.672337853402231,0.5025972942903649,5.6387187996068135,1.0419609972024118,41.10779236812105,0
16.214415924080267,0.5876007181874365,10.261527664478027,2.467831176310417,71.48547903592639,1
12.65020117795866,0.5134563470622554,6.623422045477459,0.9403025713278926,40.4141628525905,0
17.67566107045896,0.8360441676292774,14.279167533748021,2.017553349906808,57.87342867376687,1
19.346727892305047,0.8822350470895755,17.94495879412974,1.992917890936516,86.12978170593054,1
11.481729781726353,0.603837399178042,6.473861658835261,0.8882813538292997,30.441797246741217,0
15.309706237723946,0.6660530225042244,9.734897446472624,2.8705084756682244,63.631235257935664,1
19.196643615282067,0.7941279572895372,15.390280873427157,2.3559686008243608,73.41753920713539,1
13.201213922163944,0.5368421948546217,6.907899392247276,1.0958385819842043,43.95929655194034,0
16.761556142730104,0.7266517933321721,12.343351017591637,1.8877988964763641,56.391650216989206,1
11.63903383418092,0.5293346900737638,5.957607741658908,1.053335924470545,39.586424880517534,0
15.47648341955781,0.7918932894564583,12.84493302311383,2.573237805826659,59.341972886512416,1
11.318948342525118,0.352980568266786,3.9816420089098177,0.8897730259544144,39.59477017639128,0
11.362612872693482,0.440318158412176,4.7821922162423744,1.1296063061781396,42.65513047447105,0
11.752822617479403,0.5594456685737321,6.589473079120994,0.8024512228782863,39.42598875620468,0
15.22691676820448,0.6677652565316705,10.530546504130214,1.8169429595331574,66.88532805100799,1
11.353427115757473,0.42908171335334844,4.794121829303679,1.153019519886335,42.103498155092396,0
17.08057588807139,0.789390936465858,12.5786179383667,2.253540862525374,59.018136162218504,1
16.33514021160198,0.6646245325290242,10.605300550096555,2.714380629440382,59.92805012473022,1
17.380147352673227,0.8707231373804277,14.272757670573531,2.5091262304280564,71.03381996212096,1
16.420992597843007,0.9255349780288475,14.978065704831096,3.1915972576646716,64.03027972098884,1
11.42418175935532,0.522230133411007,5.92418920038385,0.9781346722564964,41.93685740316495,0
12.203463635867223,0.4800181907192699,5.704553217440718,0.9935815838711181,42.766944915372136,0
16.9133760214608,0.9466782556898976,15.690661737997784,3.605344863007882,73.364997888209,1
12.223884024279132,0.5574222854598377,7.1050298344390255,1.0894647187573872,39.47090621251151,0
16.41015067846926,0.9650572963232849,16.183647372950816,2.526228693444722,77.03253828095947,1
14.572830660185648,0.7959666089785957,12.032131481874906,2.239515724384452,64.22465735980788,1
13.77080063563551,0.49120570937838315,6.855244077363857,1.130350793193476,38.73618372451907,0
16.22820298445304,0.9124776719985813,15.139696053490562,2.6284987227929153,84.13769648291259,1
19.533023600655266,0.8962502885800102,15.662295393213212,2.790861682485253,76.3572652644055,1
18.01346014245413,0.746120969542329,13.165640875418086,3.522827273838577,62.21691446993496,1
9.876104275690192,0.6078654106632752,6.072099757605724,1.0212574030632215,36.66575641524218,0
11.284696290740031,0.5481939558397455,5.812894309798757,1.0779349003905332,41.38290752795525,0
12.412931454275624,0.4805911590729386,5.966957746828895,1.0502784426895193,29.682984237602728,0
17.912590004182693,0.7904888352299234,14.005222401058592,1.7706208037346531,83.75596964304208,1
13.03099952249595,0.47248474230772897,5.887774266703995,1.173493657583681,34.90152340145572,0
13.204389043151405,0.7368597444433442,9.601256531460507,2.9570385821120166,75.36389218847576,1
9.349030191606989,0.5420310013252276,5.177924183712425,0.9857853463059454,35.71915079669125,0
16.07356566634847,0.7667420620150125,12.168242916923367,1.83757710953363,72.75002298291811,1
15.170746198856273,0.7618510585175907,11.473639194085926,2.631251445425917,76.31224356971784,1
13.142822814515021,0.5100549523357484,6.191095132455583,1.1048707126416564,37.72602641311153,0
13.502357052096029,0.49164391431067944,6.683413257921086,1.2272434720446883,37.23455091542934,0
13.108703580582908,0.49927738645608605,6.621477060489157,1.0849611988516212,43.17983875355869,0
15.142304148787852,0.6573981882879548,9.92582458202492,2.2836812418332357,65.08455586193095,1
15.9642100459833,0.7493810938914665,12.328186868505918,1.5227034977583622,63.17925201976217,1
12.250492850345877,0.45043038252718465,5.482823299841419,1.0841983695452126,39.69798135401546,0
14.776732526610882,0.8283053162258655,11.844260648696782,1.9723379207037701,61.80613169501209,1
11.565503772567684,0.40984301618720276,4.720948100455797,0.9107212484508116,38.68626626156748,0
13.098144217777552,0.6597133842792146,8.77316615476388,2.590626974172525,90.084730109817,1
14.164047790778529,0.7976949443914534,11.15701337238303,2.8411693910298297,69.10796702308332,1
15.787611819920494,0.939922795007116,15.435929496005182,1.5921755120605914,82.45041008223257,1
12.936929369512715,0.7917746300328548,10.055382445269316,3.5260366557109677,58.02042037659338,1
10.465885829264378,0.5227943886040803,5.246997422061496,1.1991553302204734,34.70779683179174,0
18.354369926368676,0.7136020150923922,13.017435560456992,2.700084802600249,78.22572921200481,1
17.654472215314847,0.9582116751303568,16.995132903028278,2.276678476592697,52.95224255771956,1
11.181779316766528,0.4964750610970454,5.643029142695719,0.8451039474946525,46.101414482088586,0
17.78982111205365,0.7764726090027562,14.245343803638086,2.9778519855569336,74.82533709821185,1
14.917986268434202,0.8901728697140274,13.673688717325122,1.8442254310506592,70.7957954655656,1
12.471415556386404,0.48749767427005236,6.033681153557673,1.05913492417584,44.7440654823581,0
11.724948302848356,0.5598315743322826,6.778591876901422,0.9908600442490886,41.61592741229103,0
13.158110873500068,0.4530332303090623,5.74272129855867,0.9997596159081146,37.022325324080704,0
15.779989002597897,0.7197569960135164,10.333020238801348,2.2771212701015755,68.48048876528014,1
16.7663363795178,0.8817306203738327,14.392096496034522,3.6270190544605594,69.92519203259253,1
17.308862054211243,0.8928932013532216,15.133373580352462,3.169296069147803,58.93267012270549,1
14.869214059429197,0.7006406996068553,10.254652759608256,2.834542605133762,76.85656392513711,1
11.124381746615242,0.5512031262905731,6.28986837599445,0.9816849528946705,29.15161291137149,0
18.72675302707668,0.8698815670280476,16.813695472820427,1.9881220261460748,73.91828707716101,1
12.110922589709865,0.5218161834837016,6.356445313179689,0.9611479224816991,38.4088123612869,0
12.150393786476208,0.5149646290203246,6.105323961763563,0.9436052511941757,37.97819003654989,0
12.690143991711112,0.5598285750832246,6.978452549742018,0.9290979042369509,37.01685470694135,0
13.593186626639397,0.5936648888108773,8.151750186481282,1.1897767016745977,41.78126394353042,0
15.479381917457125,0.8716340080540411,14.261954302999856,2.8845678896550164,54.63469309617962,1
11.436275447196024,0.5085208111187743,5.683519838691157,1.1796360822926963,38.413247538787324,0
18.331833040510446,0.8898117324122348,16.714667467471532,2.592413516810827,63.859618384505886,1
12.109394794604892,0.5149376454182844,6.0887484832185725,0.9014196191332173,45.73013787506707,0
11.095683374895591,0.44401912833554946,4.700517973343205,0.8948690088360656,37.24509098230875,0
15.12768911698503,0.8147755907400129,11.904947079758239,1.909884132899815,55.77765498493126,1
15.337137257436995,0.8492014280566899,14.1831372556539,2.647041019396607,65.042940534251,1
15.612589240390076,0.8957304822593531,14.162341187406858,2.0873540195845677,65.36145570494054,1
13.65943858720645,0.8398763764424815,12.511128577460784,2.9005908819940913,76.44388453538183,1
13.795877673095521,0.41257340133809095,5.828084078121837,0.9784390421431978,33.24722017828508,0
15.85273149065472,0.587478837159347,9.31300254301387,1.045122531931851,34.369730195444745,0
17.112044193684582,0.7326209894340524,12.495695558630183,2.464581576041955,76.18068493930042,1
12.130740577286092,0.5618046587605219,6.7988020359143,1.064648953772577,44.64704992395408,0
16.067438109802108,0.9992036635959309,16.35414119475728,2.6904132091726267,72.95195368158836,1
16.33080732059941,0.8438579290921006,14.157589982673677,3.447574306054485,71.75574084925822,1
12.27669079933002,0.4623017705566662,5.508507312780997,0.8997782981073275,39.123107720506546,0
10.584629257949587,0.5499005054929826,5.895774884621795,0.929310743201265,32.49889069276532,0
14.8003559533603,0.8537412002820381,12.57684619042215,2.5099977431032094,73.83455014854216,1
16.162165085801647,0.7273258095117981,11.932045119939698,2.707392231039621,74.2053670590407,1
13.39431047295051,0.8822066078032528,12.117785924346434,1.81135225536395,85.87400602415536,1
9.95826513157571,0.5377145664906787,5.475127882302971,0.952873625929748,43.41611507394404,0
11.81509786355701,0.5089790890969799,6.279424412092002,0.9777279299223393,37.65434572894795,0
13.887938400066664,0.7815967600800998,10.97732479987042,1.477685498099366,70.68906133120971,1
13.003532897892024,0.558041339368926,7.229653082430295,1.0018401630783438,41.48622136690062,0
12.357787360348283,0.5062612251323954,6.6171381909329,1.0185175536829914,41.218286118513575,0
16.026086748753904,0.7958662795190831,12.552932162996507,2.605939589414442,74.4176064964948,1
15.671516029935937,0.8033524702388588,12.487573251714084,3.284259492736277,72.8378802783808,1
12.872320636720678,0.46654636306700414,5.933580648136558,0.9720189657622994,28.14170319570554,0
16.935900844263703,0.7994893367972775,14.36652865966005,2.1575064104281263,74.9576557301551,1
12.95942641551878,0.8449827213726511,10.444169179292135,1.9620530856378702,67.83581288361628,1
13.897559940434995,0.926858323564747,12.983796951550316,3.024101983837638,68.78978968990435,1
11.337376241054153,0.4886757950575084,5.613797681558105,0.9034335196476792,42.482000588669706,0
18.581516848244856,0.7637652442453898,13.333080679867862,1.7616713882409734,84.95571736482427,1
17.397839370161577,0.6918085631286868,11.923070881677157,2.3057158897543983,80.33189864363148,1
12.0022221862775,0.6830519370796984,7.747916882908765,2.7919415111420007,76.09238830889753,1
11.203104744529524,0.5234387128037512,5.950730691954271,1.0313132140013155,42.92157083217655,0
13.986145278109712,0.8715174390128059,12.081612614353979,1.6563604601794157,79.877285159246,1
15.623595122454358,0.6710519412790312,10.419805147336223,2.307909167146512,48.0249899473797,1
10.889424154534172,0.5608579260412748,6.177349856555737,1.0073196991001694,43.4638451592443,0
11.489983601145253,0.4495134647645031,4.715524471841205,1.1146440870400727,40.79044612661592,0
16.901925269552954,0.7292447714705894,11.35792565075122,1.9384024745623112,68.63577849722384,1
10.679543386915723,0.42799745587028526,4.40511799450021,0.9287826135823957,39.52587884359564,0
15.485399998764422,0.6052657525859186,9.600907028610397,2.915749433465831,79.95167665158606,1
11.591924626978448,0.4859336221440893,5.551285753776864,1.005166097685108,37.146797848999434,0
16.07508368297364,0.7958708638215339,12.123628288944284,1.9712426648532841,86.12868370707127,1
15.444972762279534,0.8995973678846446,14.274006862754758,2.511692607329254,70.52372768727568,1
13.53803656646597,0.523852041361156,7.339154235726417,1.1702514658129606,36.476357821945584,0
12.593101257968383,0.5063189789773206,6.44289816440627,1.0872197000072978,39.0456389022341,0
13.577453279763475,0.5250422237472229,7.280320632815764,0.9155058561406504,40.78987156125726,0
12.64084286126701,0.4559062674386141,5.514687371061969,0.9679702195463358,55.5645510052192,0
16.581929460274885,0.8012223548415169,12.990115205058345,3.242738684636275,82.06535723454303,1
14.407871724558731,0.8853165306413192,13.428494513030653,2.5883810516251318,61.53960327372366,1
17.37832891414867,0.9530334564354411,17.2332189377455,2.3332568595151524,76.05513651124166,1
11.153206281931595,0.5275026049512276,5.7974964832175795,1.089295387010877,37.916873471922685,0
15.663481731024916,0.7304850641923128,11.343892852424386,2.573538413722987,72.93284429004852,1
17.22558148316658,0.7176163130358846,12.786717971079527,1.909769757383959,55.10715735559782,1
13.842974517270806,0.8125886530576658,11.059761573539436,2.820770822468006,60.757315974049284,1
10.929107501938887,0.5459158303001157,5.930294460007709,0.8896330171469631,35.76820140056513,0
13.179440120721287,0.48173392243439456,6.332295790886223,1.1972542176789809,44.198319322155946,0
11.872082408519233,0.5361190678913885,6.243677590633303,0.9697819413017379,34.02738530116982,0
11.521251378336522,0.5254362511614967,5.887071921522217,0.8031495786561946,43.2616516908834,0
13.632411303931635,0.494438696932565,6.384674164363423,0.9121676922820261,41.45448528795003,0
12.614166700043425,0.5834952252175704,7.2076488187380985,0.9588176631036343,44.250396662087766,0
10.476813095216226,0.45403077042067885,4.807243600459816,0.9663613054588864,37.49382946104894,0
11.441078152728412,0.37348562386268347,4.249832402909098,1.096030479628147,37.757285817360696,0
15.392747854203998,0.5698528282330013,8.536927665782255,2.6914608550286316,83.35570455536757,1
10.587696298664708,0.5212082973200958,5.270543481398618,1.055174079991092,39.559543779854636,0
11.160278157819224,0.5338962935669634,5.7656793583939,1.2165056067806603,40.7856395949547,0
14.3782121275995,0.7408981544266569,9.849662435092466,2.823452261628283,61.36810287833172,1
15.641497949286176,0.8019599616577628,11.801262014329552,3.005189656641632,71.7560354980437,1
16.917988003348583,0.9740941486596991,16.607078689846947,2.672707090821927,66.75823138959359,1
14.21296981496144,0.6714000293483506,9.543704161973533,2.7167812300959397,72.89911174037663,1
14.827169702222452,1.0057811177097764,15.378720299007878,2.5508941668536638,69.97761883525818,1
12.346448209496975,0.39233049431981426,5.176182162271537,0.9630792799552554,45.63890125316949,0
19.180807137147276,0.6745839013004397,13.058149361737941,2.3873242574779,58.07026628980863,1
10.484808937801448,0.49329914166635414,5.014950043026176,1.0052258490497483,46.47492792408478,0
13.358243289245365,0.757101928262758,9.127507239168803,3.207602263350912,64.32552718771649,1
11.00946367486931,0.5151317732619517,5.435161982436703,0.8090643912492708,35.59622955198635,0
13.696456368290038,0.4512735347664679,6.493530950859367,1.003944704824074,39.80628552505228,0
15.817848279293946,0.8137661940868046,13.386620410947529,2.0656162277135452,71.14845090277753,1
15.200200019781366,0.8997059356453642,14.191537068081665,3.67281208094822,71.23906816521071,1
14.287302963437591,0.9119687778553381,12.993020571410662,1.6276198061973493,60.77648670938082,1
12.073317967188403,0.521179953279673,6.480633410223386,1.0370061115268956,33.89839655028012,0
15.958878885298986,0.886718741282774,14.953846913739115,2.5171666942844175,84.91673858801808,1
11.61468640313824,0.48454417678987494,5.720346920451963,1.0554057771115908,41.81985315426369,0
11.514636452170896,0.45823264733701213,5.696326702434833,0.9264696539318048,41.62229302176259,0
15.872852921627757,0.7719497946588383,12.68064630737462,2.971469309948617,65.69572301199284,1
12.55979044793104,0.5041219876467251,6.234225940798361,1.0464369863546574,53.77608871859951,0
12.813509636000639,0.5278905153175931,6.8636788225936005,0.8985240506814147,41.91717515701822,0
10.748460575809556,0.4547133849568691,4.980803087895038,1.2184096733380456,43.94959861090426,0
11.560268941725825,0.5073396505992774,5.737871237447979,1.0420191542894992,30.429699647062662,0
12.243687211491912,0.5001523010076707,6.2079029205237495,0.9757318723187967,40.95948867936518,0
11.708306250206723,0.4488603717400797,5.157067458788079,1.0034441011705841,44.0106422930906,0
13.458096557815434,0.7190275164232717,9.227912051113085,1.7893250273407264,41.98088430512108,1
19.28708301824106,0.7730048103174836,14.894899010624373,1.6904134717420676,54.67401765402238,1
11.553566385449471,0.49159280907076053,5.699263662116408,1.094959457136449,46.75557044993357,0
14.068434734272081,0.743030103707427,10.621409464231133,2.295329712390688,61.934801675434386,1
10.132734807408251,0.5154910355113513,5.093825597305761,1.0757495149337486,44.2238718789085,0
11.76105195313359,0.46415888396985977,5.5687735159414995,1.1712040284017893,37.05443933609436,0
14.789687528788004,0.9448820108337717,14.406228331899303,2.1832052422530936,70.2012112958086,1
18.180366942040894,0.7831699576828358,13.647830966824401,2.729194504978534,69.0378773795942,1
11.678614158347006,0.4848765156755936,5.672640478455143,0.9851030690232703,42.516260323747524,0
15.330394025110996,0.9933359747714358,14.520097462893522,2.2870910008167242,75.3080158367273,1
13.216083238096537,0.7837296298430909,9.627585574459633,2.4482686050765383,58.434447829326636,1
16.00151101490919,0.7948457791392349,13.041078391692663,3.2397408809304364,77.013898938095,1
15.577231540364062,0.7628220988476512,10.55674242633387,3.3323209109831375,65.20031853851273,1
18.542130652014066,0.6652746082418651,13.74771891868574,2.7316507551171156,73.18808339628256,1
12.869605920105661,0.46770179104377324,5.892065261095839,1.2049812095785926,48.17533197263759,0
11.423096344337598,0.4623291064826908,5.488279793088044,1.0139060398653417,42.92649718258169,0
14.821095200122564,0.7163019645560413,10.4338033021208,2.669487946834131,77.29236949310753,1
16.16597483762502,0.7655522791247548,12.183654320696512,2.7807363149130664,76.76994097375054,1
16.29868382211976,0.7335348902497938,11.783101200265111,2.327046359666586,69.68738585845755,1
10.816741487334225,0.515370334890455,5.687548867929639,1.0466545311450126,31.09420792767183,0
16.40169018623142,0.9707329809559223,16.287610641813114,1.463822409152001,90.5451488940476,1
11.437712470759028,0.5098955391731324,5.793273339430374,1.1038378851019317,37.104379451821266,0
11.09061254520526,0.559351515278019,6.360471790101574,0.938783308284518,39.313445171055605,0
18.798972853944687,0.6995709436505747,12.62618778418403,2.866075613027368,62.67700450262912,1
12.459180079228437,0.46239217972047086,5.501804101514327,0.9114751313875777,36.74670086315808,0
12.515047686306048,0.4298697364100153,5.317228643966522,1.0900398588395064,35.715740674361,0
13.600549469819573,0.7908031533796954,11.207838429176963,2.233928054913449,59.98990455517186,1
16.517539610487844,0.7693986045642591,12.47618831518836,2.7398126597757866,67.5034446178108,1
12.208863595004756,0.4387117168498829,5.434654701986323,0.9657450799142235,42.58473257874186,0
11.987753227153085,0.5765375416171848,6.852596385563477,1.0913771621385586,43.406811632876526,0
11.730593165555442,0.5430236744179873,6.365279373687597,1.0522250636017778,41.133421242472984,0
10.617200269035663,0.5296263474600591,5.691159257655093,0.9643326865820129,34.02905299453855,0
12.645484181141075,0.4403037496800472,5.477851529876974,1.0585904201164649,41.33921818933167,0
11.226990216144534,0.45575986429865495,5.363973861393747,1.0131065186215849,41.1163541796013,0
12.113517345251248,0.5066770452391142,5.792479830186542,0.9138296929743742,50.465989661049726,0
15.389622309038497,0.8049328165794845,13.15564262216359,2.552639311954839,68.97896941108561,1
18.393821897522706,0.8557137618403482,15.881768814201894,2.175500739763421,65.4077960201076,1
12.712998430172387,0.5593839694230782,7.174678716575747,0.9149464721252956,43.32684467516415,0
12.296984673233187,0.4576519325840836,5.29910103843119,0.9103357772684791,41.217651020931726,0
14.737125945033632,0.8898511704551565,13.386139971730048,1.5925580852592969,90.54092441435975,1
13.755340842443204,0.5536253668654901,7.849223618743033,0.9922778954776954,34.56972708940957,0
